T325C 001:351.014   SEGGER J-Link V6.86 Log File
T325C 001:351.165   DLL Compiled: Sep 24 2020 17:31:31
T325C 001:351.170   Logging started @ 2021-07-24 09:33
T325C 001:351.175 - 1351.177ms
T325C 001:351.186 JLINK_SetWarnOutHandler(...)
T325C 001:351.191 - 0.007ms
T325C 001:351.196 JLINK_OpenEx(...)
T325C 001:352.631   Firmware: J-Link ARM-OB STM32 compiled Jun 30 2009 11:14:15
T325C 001:352.766   Looking for J-Link GUI Server exe at: D:\Program Files\Keil5\ARM\Segger\JLinkGUIServer.exe
T325C 001:352.842   Looking for J-Link GUI Server exe at: C:\Program Files (x86)\SEGGER\JLink\JLinkGUIServer.exe
T325C 001:352.873   Forking J-Link GUI Server: C:\Program Files (x86)\SEGGER\JLink\JLinkGUIServer.exe
T325C 001:357.649   J-Link GUI Server info: "J-Link GUI server V6.88a "
T325C 001:807.005   Hardware: V7.00
T325C 001:807.080   S/N: 20090928
T325C 001:807.108   OEM: SEGGER
T325C 001:807.136   Feature(s): RDI,FlashDL,FlashBP,JFlash,GDBFull
T325C 001:809.150   TELNET listener socket opened on port 19021
T325C 001:809.837   WEBSRV Starting webserver
T325C 001:810.696   WEBSRV Webserver running on local port 19080
T325C 001:810.748 - 459.561ms returns "O.K."
T325C 001:810.817 JLINK_GetEmuCaps()
T325C 001:810.839 - 0.031ms returns 0x88EA5833
T325C 001:810.875 JLINK_TIF_GetAvailable(...)
T325C 001:811.262 - 0.433ms
T325C 001:811.348 JLINK_SetErrorOutHandler(...)
T325C 001:811.370 - 0.034ms
T325C 001:811.550 JLINK_ExecCommand("ProjectFile = "C:\Users\umbor\Desktop\2021国赛\软件代码\TM4C\ProjectTM4C123\JLinkSettings.ini"", ...). 
T325C 001:835.169   Ref file found at: D:\Program Files\Keil5\ARM\Segger\JLinkDevices.ref
T325C 001:835.268   XML referenced by ref file: C:\Program Files (x86)\SEGGER\JLink\JLinkDevices.xml
T325C 001:835.954   C:\Program Files (x86)\SEGGER\JLink\JLinkDevices.xml evaluated successfully.
T325C 001:862.239 - 50.703ms returns 0x00
T325C 001:864.784 JLINK_ExecCommand("Device = TM4C123GH6PM", ...). 
T325C 001:867.097   Device "TM4C123GH6PM" selected.
T325C 001:867.330 - 2.537ms returns 0x00
T325C 001:867.344 JLINK_GetHardwareVersion()
T325C 001:867.348 - 0.006ms returns 70000
T325C 001:867.360 JLINK_GetDLLVersion()
T325C 001:867.364 - 0.005ms returns 68600
T325C 001:867.369 JLINK_GetOEMString(...)
T325C 001:867.374 JLINK_GetFirmwareString(...)
T325C 001:867.378 - 0.005ms
T325C 001:876.461 JLINK_GetDLLVersion()
T325C 001:876.482 - 0.022ms returns 68600
T325C 001:876.487 JLINK_GetCompileDateTime()
T325C 001:876.491 - 0.005ms
T325C 001:878.214 JLINK_GetFirmwareString(...)
T325C 001:878.225 - 0.013ms
T325C 001:879.739 JLINK_GetHardwareVersion()
T325C 001:879.747 - 0.010ms returns 70000
T325C 001:881.181 JLINK_GetSN()
T325C 001:881.190 - 0.010ms returns 20090928
T325C 001:882.689 JLINK_GetOEMString(...)
T325C 001:885.714 JLINK_TIF_Select(JLINKARM_TIF_SWD)
T325C 001:886.493 - 0.787ms returns 0x00
T325C 001:886.511 JLINK_HasError()
T325C 001:886.531 JLINK_SetSpeed(3000)
T325C 001:886.687 - 0.164ms
T325C 001:886.717 JLINK_GetId()
T325C 001:895.292   Found SW-DP with ID 0x2BA01477
T325C 001:899.507   Old FW that does not support reading DPIDR via DAP jobs
T325C 001:906.295   Unknown DP version. Assuming DPv0
T325C 001:907.882   Scanning AP map to find all available APs
T325C 001:913.546   AP[1]: Stopped AP scan as end of AP map has been reached
T325C 001:915.125   AP[0]: AHB-AP (IDR: 0x24770011)
T325C 001:916.740   Iterating through AP map to find AHB-AP to use
T325C 001:926.681   AP[0]: Core found
T325C 001:928.336   AP[0]: AHB-AP ROM base: 0xE00FF000
T325C 001:933.522   CPUID register: 0x410FC241. Implementer code: 0x41 (ARM)
T325C 001:935.160   Found Cortex-M4 r0p1, Little endian.
T325C 002:038.472   -- Max. mem block: 0x00003BF0
T325C 002:056.067   FPUnit: 6 code (BP) slots and 2 literal slots
T325C 002:086.841   CoreSight components:
T325C 002:091.852   ROMTbl[0] @ E00FF000
T325C 002:100.997   ROMTbl[0][0]: E000E000, CID: B105E00D, PID: 000BB00C SCS-M7
T325C 002:107.952   ROMTbl[0][1]: E0001000, CID: B105E00D, PID: 003BB002 DWT
T325C 002:113.121   ROMTbl[0][2]: E0002000, CID: B105E00D, PID: 002BB003 FPB
T325C 002:118.343   ROMTbl[0][3]: E0000000, CID: B105E00D, PID: 003BB001 ITM
T325C 002:123.517   ROMTbl[0][4]: E0040000, CID: B105900D, PID: 000BB9A1 TPIU
T325C 002:128.641   ROMTbl[0][5]: E0041000, CID: B105900D, PID: 000BB925 ETM
T325C 002:132.270 - 245.559ms returns 0x2BA01477
T325C 002:132.289 JLINK_GetDLLVersion()
T325C 002:132.294 - 0.006ms returns 68600
T325C 002:132.299 JLINK_CORE_GetFound()
T325C 002:132.317 - 0.019ms returns 0xE0000FF
T325C 002:132.322 JLINK_GetDebugInfo(0x100 = JLINKARM_ROM_TABLE_ADDR_INDEX)
T325C 002:132.346   Value=0xE00FF000
T325C 002:132.352 - 0.032ms returns 0
T325C 002:134.048 JLINK_GetDebugInfo(0x100 = JLINKARM_ROM_TABLE_ADDR_INDEX)
T325C 002:134.058   Value=0xE00FF000
T325C 002:134.063 - 0.016ms returns 0
T325C 002:134.068 JLINK_GetDebugInfo(0x101 = JLINKARM_DEBUG_INFO_ETM_ADDR_INDEX)
T325C 002:134.072   Value=0xE0041000
T325C 002:134.077 - 0.011ms returns 0
T325C 002:134.090 JLINK_ReadMemEx(0xE0041FD0, 0x20 Bytes, Flags = 0x02000004)
T325C 002:136.799   Data:  04 00 00 00 00 00 00 00 00 00 00 00 00 00 00 00 ...
T325C 002:136.810 - 2.722ms returns 32 (0x20)
T325C 002:136.818 JLINK_GetDebugInfo(0x102 = JLINKARM_DEBUG_INFO_MTB_ADDR_INDEX)
T325C 002:136.823   Value=0x00000000
T325C 002:136.829 - 0.013ms returns 0
T325C 002:136.833 JLINK_GetDebugInfo(0x103 = JLINKARM_DEBUG_INFO_TPIU_ADDR_INDEX)
T325C 002:136.838   Value=0xE0040000
T325C 002:136.844 - 0.012ms returns 0
T325C 002:136.848 JLINK_GetDebugInfo(0x104 = JLINKARM_DEBUG_INFO_ITM_ADDR_INDEX)
T325C 002:136.853   Value=0xE0000000
T325C 002:136.858 - 0.012ms returns 0
T325C 002:136.863 JLINK_GetDebugInfo(0x105 = JLINKARM_DEBUG_INFO_DWT_ADDR_INDEX)
T325C 002:136.867   Value=0xE0001000
T325C 002:136.873 - 0.011ms returns 0
T325C 002:136.878 JLINK_GetDebugInfo(0x106 = JLINKARM_DEBUG_INFO_FPB_ADDR_INDEX)
T325C 002:136.899   Value=0xE0002000
T325C 002:136.904 - 0.028ms returns 0
T325C 002:136.908 JLINK_GetDebugInfo(0x107 = JLINKARM_DEBUG_INFO_NVIC_ADDR_INDEX)
T325C 002:136.912   Value=0xE000E000
T325C 002:136.918 - 0.011ms returns 0
T325C 002:136.922 JLINK_GetDebugInfo(0x10C = JLINKARM_DEBUG_INFO_DBG_ADDR_INDEX)
T325C 002:136.926   Value=0xE000EDF0
T325C 002:136.931 - 0.011ms returns 0
T325C 002:136.935 JLINK_GetDebugInfo(0x01 = Unknown)
T325C 002:136.939   Value=0x00000001
T325C 002:136.944 - 0.011ms returns 0
T325C 002:136.949 JLINK_ReadMemU32(0xE000ED00, 0x1 Items)
T325C 002:139.386   Data:  41 C2 0F 41
T325C 002:139.398   Debug reg: CPUID
T325C 002:139.404 - 2.457ms returns 1 (0x1)
T325C 002:139.411 JLINK_GetDebugInfo(0x10F = JLINKARM_DEBUG_INFO_HAS_CORTEX_M_SECURITY_EXT_INDEX)
T325C 002:139.416   Value=0x00000000
T325C 002:139.422 - 0.013ms returns 0
T325C 002:139.428 JLINK_HasError()
T325C 002:139.433 JLINK_SetResetType(JLINKARM_CM3_RESET_TYPE_NORMAL)
T325C 002:139.437 - 0.006ms returns JLINKARM_CM3_RESET_TYPE_NORMAL
T325C 002:139.442 JLINK_Reset()
T325C 002:139.463   CPU is running
T325C 002:141.817   CPU is running
T325C 002:145.887   Reset: Halt core after reset via DEMCR.VC_CORERESET.
T325C 002:148.213   Reset: Reset device via AIRCR.SYSRESETREQ.
T325C 002:148.226   CPU is running
T325C 002:209.925   CPU is running
T325C 002:213.160   CPU is running
T325C 002:248.766 - 109.378ms
T325C 002:248.869 JLINK_Halt()
T325C 002:248.892 - 0.032ms returns 0x00
T325C 002:248.917 JLINK_ReadMemU32(0xE000EDF0, 0x1 Items)
T325C 002:252.339   Data:  03 00 03 00
T325C 002:252.395   Debug reg: DHCSR
T325C 002:252.422 - 3.514ms returns 1 (0x1)
T325C 002:252.512 JLINK_WriteU32_64(0xE000EDF0, 0xA05F0003)
T325C 002:252.588   Debug reg: DHCSR
T325C 002:255.816 - 3.344ms returns 0 (0x00000000)
T325C 002:255.897 JLINK_WriteU32_64(0xE000EDFC, 0x01000000)
T325C 002:255.923   Debug reg: DEMCR
T325C 002:259.329 - 3.480ms returns 0 (0x00000000)
T325C 002:278.514 JLINK_GetHWStatus(...)
T325C 002:278.870 - 0.366ms returns 0
T325C 002:286.539 JLINK_GetNumBPUnits(Type = 0xFFFFFF00)
T325C 002:286.559 - 0.022ms returns 0x06
T325C 002:286.567 JLINK_GetNumBPUnits(Type = 0xF0)
T325C 002:286.582 - 0.018ms returns 0x2000
T325C 002:286.589 JLINK_GetNumWPUnits()
T325C 002:286.595 - 0.008ms returns 4
T325C 002:292.428 JLINK_GetSpeed()
T325C 002:292.446 - 0.020ms returns 2667
T325C 002:295.770 JLINK_ReadMemU32(0xE000E004, 0x1 Items)
T325C 002:298.384   Data:  04 00 00 00
T325C 002:298.409 - 2.641ms returns 1 (0x1)
T325C 002:298.420 JLINK_ReadMemU32(0xE000E004, 0x1 Items)
T325C 002:301.537   Data:  04 00 00 00
T325C 002:301.594 - 3.176ms returns 1 (0x1)
T325C 002:301.604 JLINK_WriteMemEx(0xE0001000, 0x0000001C Bytes, Flags = 0x02000004)
T325C 002:301.609   Data:  01 00 00 00 00 00 00 00 00 00 00 00 00 00 00 00 ...
T325C 002:305.309 - 3.712ms returns 0x1C
T325C 002:305.327 JLINK_Halt()
T325C 002:305.332 - 0.006ms returns 0x00
T325C 002:305.336 JLINK_IsHalted()
T325C 002:305.341 - 0.006ms returns TRUE
T325C 002:307.288 JLINK_WriteMem(0x20000000, 0x128 Bytes, ...)
T325C 002:307.299   Data:  00 BE 0A E0 0D 78 2D 06 68 40 08 24 40 00 00 D3 ...
T325C 002:316.215 - 8.947ms returns 0x128
T325C 002:316.287 JLINK_HasError()
T325C 002:316.453 JLINK_WriteReg(R0, 0x00000000)
T325C 002:316.473 - 0.023ms returns 0
T325C 002:316.480 JLINK_WriteReg(R1, 0x00B71B00)
T325C 002:316.484 - 0.006ms returns 0
T325C 002:316.489 JLINK_WriteReg(R2, 0x00000001)
T325C 002:316.494 - 0.006ms returns 0
T325C 002:316.498 JLINK_WriteReg(R3, 0x00000000)
T325C 002:316.502 - 0.006ms returns 0
T325C 002:316.507 JLINK_WriteReg(R4, 0x00000000)
T325C 002:316.511 - 0.006ms returns 0
T325C 002:316.516 JLINK_WriteReg(R5, 0x00000000)
T325C 002:316.520 - 0.008ms returns 0
T325C 002:316.527 JLINK_WriteReg(R6, 0x00000000)
T325C 002:316.531 - 0.006ms returns 0
T325C 002:316.536 JLINK_WriteReg(R7, 0x00000000)
T325C 002:316.540 - 0.006ms returns 0
T325C 002:316.545 JLINK_WriteReg(R8, 0x00000000)
T325C 002:316.559 - 0.017ms returns 0
T325C 002:316.564 JLINK_WriteReg(R9, 0x20000124)
T325C 002:316.568 - 0.006ms returns 0
T325C 002:316.573 JLINK_WriteReg(R10, 0x00000000)
T325C 002:316.577 - 0.006ms returns 0
T325C 002:316.582 JLINK_WriteReg(R11, 0x00000000)
T325C 002:316.586 - 0.006ms returns 0
T325C 002:316.590 JLINK_WriteReg(R12, 0x00000000)
T325C 002:316.595 - 0.006ms returns 0
T325C 002:316.599 JLINK_WriteReg(R13 (SP), 0x20001000)
T325C 002:316.604 - 0.006ms returns 0
T325C 002:316.608 JLINK_WriteReg(R14, 0x20000001)
T325C 002:316.613 - 0.006ms returns 0
T325C 002:316.617 JLINK_WriteReg(R15 (PC), 0x20000038)
T325C 002:316.626 - 0.010ms returns 0
T325C 002:316.630 JLINK_WriteReg(XPSR, 0x01000000)
T325C 002:316.635 - 0.006ms returns 0
T325C 002:316.639 JLINK_WriteReg(MSP, 0x20001000)
T325C 002:316.644 - 0.006ms returns 0
T325C 002:316.648 JLINK_WriteReg(PSP, 0x20001000)
T325C 002:316.652 - 0.006ms returns 0
T325C 002:316.657 JLINK_WriteReg(CFBP, 0x00000000)
T325C 002:316.661 - 0.006ms returns 0
T325C 002:316.666 JLINK_SetBPEx(Addr = 0x20000000, Type = 0xFFFFFFF2)
T325C 002:319.373 - 2.744ms returns 0x00000001
T325C 002:319.424 JLINK_Go()
T325C 002:352.564 - 33.162ms
T325C 002:352.598 JLINK_IsHalted()
T325C 002:364.582 - 12.036ms returns TRUE
T325C 002:364.675 JLINK_ReadReg(R15 (PC))
T325C 002:364.714 - 0.049ms returns 0x20000000
T325C 002:364.738 JLINK_ClrBPEx(BPHandle = 0x00000001)
T325C 002:364.759 - 0.030ms returns 0x00
T325C 002:364.788 JLINK_ReadReg(R0)
T325C 002:364.810 - 0.031ms returns 0x00000000
T325C 002:365.763 JLINK_HasError()
T325C 002:365.806 JLINK_WriteReg(R0, 0x00000000)
T325C 002:365.833 - 0.040ms returns 0
T325C 002:365.858 JLINK_WriteReg(R1, 0x00000400)
T325C 002:365.880 - 0.031ms returns 0
T325C 002:365.901 JLINK_WriteReg(R2, 0x000000FF)
T325C 002:365.920 - 0.028ms returns 0
T325C 002:365.941 JLINK_WriteReg(R3, 0x00000000)
T325C 002:365.959 - 0.028ms returns 0
T325C 002:365.980 JLINK_WriteReg(R4, 0x00000000)
T325C 002:365.999 - 0.027ms returns 0
T325C 002:366.019 JLINK_WriteReg(R5, 0x00000000)
T325C 002:366.038 - 0.027ms returns 0
T325C 002:366.058 JLINK_WriteReg(R6, 0x00000000)
T325C 002:366.076 - 0.027ms returns 0
T325C 002:366.107 JLINK_WriteReg(R7, 0x00000000)
T325C 002:366.136 - 0.038ms returns 0
T325C 002:366.157 JLINK_WriteReg(R8, 0x00000000)
T325C 002:366.176 - 0.027ms returns 0
T325C 002:366.196 JLINK_WriteReg(R9, 0x20000124)
T325C 002:366.215 - 0.027ms returns 0
T325C 002:366.235 JLINK_WriteReg(R10, 0x00000000)
T325C 002:366.254 - 0.027ms returns 0
T325C 002:366.274 JLINK_WriteReg(R11, 0x00000000)
T325C 002:366.293 - 0.028ms returns 0
T325C 002:366.313 JLINK_WriteReg(R12, 0x00000000)
T325C 002:366.332 - 0.027ms returns 0
T325C 002:366.352 JLINK_WriteReg(R13 (SP), 0x20001000)
T325C 002:366.373 - 0.030ms returns 0
T325C 002:366.393 JLINK_WriteReg(R14, 0x20000001)
T325C 002:366.412 - 0.028ms returns 0
T325C 002:366.433 JLINK_WriteReg(R15 (PC), 0x20000020)
T325C 002:366.452 - 0.028ms returns 0
T325C 002:366.472 JLINK_WriteReg(XPSR, 0x01000000)
T325C 002:366.491 - 0.028ms returns 0
T325C 002:366.511 JLINK_WriteReg(MSP, 0x20001000)
T325C 002:366.530 - 0.027ms returns 0
T325C 002:366.551 JLINK_WriteReg(PSP, 0x20001000)
T325C 002:366.570 - 0.027ms returns 0
T325C 002:366.600 JLINK_WriteReg(CFBP, 0x00000000)
T325C 002:366.621 - 0.029ms returns 0
T325C 002:366.642 JLINK_SetBPEx(Addr = 0x20000000, Type = 0xFFFFFFF2)
T325C 002:366.665 - 0.032ms returns 0x00000002
T325C 002:366.686 JLINK_Go()
T325C 002:392.041 - 25.370ms
T325C 002:392.067 JLINK_IsHalted()
T325C 002:403.814 - 11.783ms returns TRUE
T325C 002:403.865 JLINK_ReadReg(R15 (PC))
T325C 002:403.880 - 0.018ms returns 0x20000000
T325C 002:403.887 JLINK_ClrBPEx(BPHandle = 0x00000002)
T325C 002:403.899 - 0.014ms returns 0x00
T325C 002:403.907 JLINK_ReadReg(R0)
T325C 002:403.914 - 0.009ms returns 0x00000001
T325C 002:403.928 JLINK_HasError()
T325C 002:403.939 JLINK_WriteReg(R0, 0x00000000)
T325C 002:403.946 - 0.009ms returns 0
T325C 002:403.954 JLINK_WriteReg(R1, 0x00000400)
T325C 002:403.960 - 0.008ms returns 0
T325C 002:404.060 JLINK_WriteReg(R2, 0x000000FF)
T325C 002:404.076 - 0.019ms returns 0
T325C 002:404.083 JLINK_WriteReg(R3, 0x00000000)
T325C 002:404.089 - 0.008ms returns 0
T325C 002:404.095 JLINK_WriteReg(R4, 0x00000000)
T325C 002:404.101 - 0.008ms returns 0
T325C 002:404.107 JLINK_WriteReg(R5, 0x00000000)
T325C 002:404.112 - 0.007ms returns 0
T325C 002:404.118 JLINK_WriteReg(R6, 0x00000000)
T325C 002:404.123 - 0.007ms returns 0
T325C 002:404.129 JLINK_WriteReg(R7, 0x00000000)
T325C 002:404.135 - 0.007ms returns 0
T325C 002:404.140 JLINK_WriteReg(R8, 0x00000000)
T325C 002:404.146 - 0.008ms returns 0
T325C 002:404.151 JLINK_WriteReg(R9, 0x20000124)
T325C 002:404.157 - 0.007ms returns 0
T325C 002:404.163 JLINK_WriteReg(R10, 0x00000000)
T325C 002:404.168 - 0.008ms returns 0
T325C 002:404.174 JLINK_WriteReg(R11, 0x00000000)
T325C 002:404.179 - 0.008ms returns 0
T325C 002:404.185 JLINK_WriteReg(R12, 0x00000000)
T325C 002:404.190 - 0.007ms returns 0
T325C 002:404.196 JLINK_WriteReg(R13 (SP), 0x20001000)
T325C 002:404.202 - 0.008ms returns 0
T325C 002:404.208 JLINK_WriteReg(R14, 0x20000001)
T325C 002:404.214 - 0.008ms returns 0
T325C 002:404.219 JLINK_WriteReg(R15 (PC), 0x20000070)
T325C 002:404.225 - 0.008ms returns 0
T325C 002:404.231 JLINK_WriteReg(XPSR, 0x01000000)
T325C 002:404.236 - 0.008ms returns 0
T325C 002:404.242 JLINK_WriteReg(MSP, 0x20001000)
T325C 002:404.247 - 0.008ms returns 0
T325C 002:404.253 JLINK_WriteReg(PSP, 0x20001000)
T325C 002:404.259 - 0.008ms returns 0
T325C 002:404.265 JLINK_WriteReg(CFBP, 0x00000000)
T325C 002:404.270 - 0.008ms returns 0
T325C 002:404.276 JLINK_SetBPEx(Addr = 0x20000000, Type = 0xFFFFFFF2)
T325C 002:404.283 - 0.010ms returns 0x00000003
T325C 002:404.290 JLINK_Go()
T325C 002:426.775 - 22.502ms
T325C 002:426.803 JLINK_IsHalted()
T325C 002:428.578 - 1.782ms returns FALSE
T325C 002:428.591 JLINK_HasError()
T325C 002:494.001 JLINK_IsHalted()
T325C 002:506.062 - 12.078ms returns TRUE
T325C 002:506.087 JLINK_ReadReg(R15 (PC))
T325C 002:506.099 - 0.013ms returns 0x20000000
T325C 002:506.104 JLINK_ClrBPEx(BPHandle = 0x00000003)
T325C 002:506.109 - 0.007ms returns 0x00
T325C 002:506.163 JLINK_ReadReg(R0)
T325C 002:506.172 - 0.010ms returns 0x00000000
T325C 002:506.707 JLINK_HasError()
T325C 002:506.716 JLINK_WriteReg(R0, 0x00000400)
T325C 002:506.723 - 0.008ms returns 0
T325C 002:506.728 JLINK_WriteReg(R1, 0x00000400)
T325C 002:506.732 - 0.006ms returns 0
T325C 002:506.737 JLINK_WriteReg(R2, 0x000000FF)
T325C 002:506.741 - 0.006ms returns 0
T325C 002:506.746 JLINK_WriteReg(R3, 0x00000000)
T325C 002:506.750 - 0.006ms returns 0
T325C 002:506.755 JLINK_WriteReg(R4, 0x00000000)
T325C 002:506.759 - 0.006ms returns 0
T325C 002:506.764 JLINK_WriteReg(R5, 0x00000000)
T325C 002:506.768 - 0.006ms returns 0
T325C 002:506.772 JLINK_WriteReg(R6, 0x00000000)
T325C 002:506.777 - 0.006ms returns 0
T325C 002:506.781 JLINK_WriteReg(R7, 0x00000000)
T325C 002:506.785 - 0.006ms returns 0
T325C 002:506.790 JLINK_WriteReg(R8, 0x00000000)
T325C 002:506.794 - 0.006ms returns 0
T325C 002:506.799 JLINK_WriteReg(R9, 0x20000124)
T325C 002:506.803 - 0.006ms returns 0
T325C 002:506.807 JLINK_WriteReg(R10, 0x00000000)
T325C 002:506.812 - 0.006ms returns 0
T325C 002:506.816 JLINK_WriteReg(R11, 0x00000000)
T325C 002:506.820 - 0.006ms returns 0
T325C 002:506.825 JLINK_WriteReg(R12, 0x00000000)
T325C 002:506.829 - 0.006ms returns 0
T325C 002:506.834 JLINK_WriteReg(R13 (SP), 0x20001000)
T325C 002:506.838 - 0.006ms returns 0
T325C 002:506.843 JLINK_WriteReg(R14, 0x20000001)
T325C 002:506.847 - 0.006ms returns 0
T325C 002:506.852 JLINK_WriteReg(R15 (PC), 0x20000020)
T325C 002:506.856 - 0.006ms returns 0
T325C 002:506.861 JLINK_WriteReg(XPSR, 0x01000000)
T325C 002:506.865 - 0.006ms returns 0
T325C 002:506.869 JLINK_WriteReg(MSP, 0x20001000)
T325C 002:506.874 - 0.006ms returns 0
T325C 002:506.878 JLINK_WriteReg(PSP, 0x20001000)
T325C 002:506.882 - 0.006ms returns 0
T325C 002:506.887 JLINK_WriteReg(CFBP, 0x00000000)
T325C 002:506.891 - 0.006ms returns 0
T325C 002:506.896 JLINK_SetBPEx(Addr = 0x20000000, Type = 0xFFFFFFF2)
T325C 002:506.901 - 0.007ms returns 0x00000004
T325C 002:506.906 JLINK_Go()
T325C 002:533.874 - 26.987ms
T325C 002:533.907 JLINK_IsHalted()
T325C 002:545.939 - 12.052ms returns TRUE
T325C 002:545.973 JLINK_ReadReg(R15 (PC))
T325C 002:545.985 - 0.015ms returns 0x20000000
T325C 002:545.991 JLINK_ClrBPEx(BPHandle = 0x00000004)
T325C 002:545.996 - 0.007ms returns 0x00
T325C 002:546.001 JLINK_ReadReg(R0)
T325C 002:546.006 - 0.006ms returns 0x00000001
T325C 002:546.012 JLINK_HasError()
T325C 002:546.102 JLINK_WriteReg(R0, 0x00000400)
T325C 002:546.117 - 0.017ms returns 0
T325C 002:546.124 JLINK_WriteReg(R1, 0x00000400)
T325C 002:546.128 - 0.006ms returns 0
T325C 002:546.133 JLINK_WriteReg(R2, 0x000000FF)
T325C 002:546.138 - 0.006ms returns 0
T325C 002:546.143 JLINK_WriteReg(R3, 0x00000000)
T325C 002:546.147 - 0.006ms returns 0
T325C 002:546.151 JLINK_WriteReg(R4, 0x00000000)
T325C 002:546.156 - 0.006ms returns 0
T325C 002:546.160 JLINK_WriteReg(R5, 0x00000000)
T325C 002:546.164 - 0.006ms returns 0
T325C 002:546.169 JLINK_WriteReg(R6, 0x00000000)
T325C 002:546.173 - 0.006ms returns 0
T325C 002:546.177 JLINK_WriteReg(R7, 0x00000000)
T325C 002:546.182 - 0.006ms returns 0
T325C 002:546.186 JLINK_WriteReg(R8, 0x00000000)
T325C 002:546.190 - 0.006ms returns 0
T325C 002:546.195 JLINK_WriteReg(R9, 0x20000124)
T325C 002:546.199 - 0.006ms returns 0
T325C 002:546.204 JLINK_WriteReg(R10, 0x00000000)
T325C 002:546.208 - 0.006ms returns 0
T325C 002:546.212 JLINK_WriteReg(R11, 0x00000000)
T325C 002:546.217 - 0.006ms returns 0
T325C 002:546.221 JLINK_WriteReg(R12, 0x00000000)
T325C 002:546.225 - 0.006ms returns 0
T325C 002:546.230 JLINK_WriteReg(R13 (SP), 0x20001000)
T325C 002:546.234 - 0.006ms returns 0
T325C 002:546.239 JLINK_WriteReg(R14, 0x20000001)
T325C 002:546.243 - 0.006ms returns 0
T325C 002:546.248 JLINK_WriteReg(R15 (PC), 0x20000070)
T325C 002:546.252 - 0.006ms returns 0
T325C 002:546.256 JLINK_WriteReg(XPSR, 0x01000000)
T325C 002:546.261 - 0.006ms returns 0
T325C 002:546.265 JLINK_WriteReg(MSP, 0x20001000)
T325C 002:546.269 - 0.064ms returns 0
T325C 002:546.338 JLINK_WriteReg(PSP, 0x20001000)
T325C 002:546.343 - 0.007ms returns 0
T325C 002:546.348 JLINK_WriteReg(CFBP, 0x00000000)
T325C 002:546.352 - 0.006ms returns 0
T325C 002:546.357 JLINK_SetBPEx(Addr = 0x20000000, Type = 0xFFFFFFF2)
T325C 002:546.364 - 0.009ms returns 0x00000005
T325C 002:546.369 JLINK_Go()
T325C 002:571.047 - 24.700ms
T325C 002:571.079 JLINK_IsHalted()
T325C 002:573.543 - 2.487ms returns FALSE
T325C 002:573.582 JLINK_HasError()
T325C 002:576.966 JLINK_IsHalted()
T325C 002:588.556 - 11.614ms returns TRUE
T325C 002:588.592 JLINK_ReadReg(R15 (PC))
T325C 002:588.610 - 0.022ms returns 0x20000000
T325C 002:588.620 JLINK_ClrBPEx(BPHandle = 0x00000005)
T325C 002:588.629 - 0.012ms returns 0x00
T325C 002:588.637 JLINK_ReadReg(R0)
T325C 002:588.645 - 0.011ms returns 0x00000000
T325C 002:589.346 JLINK_HasError()
T325C 002:589.370 JLINK_WriteReg(R0, 0x00000800)
T325C 002:589.384 - 0.017ms returns 0
T325C 002:589.393 JLINK_WriteReg(R1, 0x00000400)
T325C 002:589.401 - 0.011ms returns 0
T325C 002:589.410 JLINK_WriteReg(R2, 0x000000FF)
T325C 002:589.417 - 0.011ms returns 0
T325C 002:589.426 JLINK_WriteReg(R3, 0x00000000)
T325C 002:589.434 - 0.011ms returns 0
T325C 002:589.442 JLINK_WriteReg(R4, 0x00000000)
T325C 002:589.450 - 0.011ms returns 0
T325C 002:589.458 JLINK_WriteReg(R5, 0x00000000)
T325C 002:589.465 - 0.011ms returns 0
T325C 002:589.474 JLINK_WriteReg(R6, 0x00000000)
T325C 002:589.481 - 0.011ms returns 0
T325C 002:589.490 JLINK_WriteReg(R7, 0x00000000)
T325C 002:589.497 - 0.011ms returns 0
T325C 002:589.505 JLINK_WriteReg(R8, 0x00000000)
T325C 002:589.513 - 0.011ms returns 0
T325C 002:589.521 JLINK_WriteReg(R9, 0x20000124)
T325C 002:589.529 - 0.011ms returns 0
T325C 002:589.537 JLINK_WriteReg(R10, 0x00000000)
T325C 002:589.545 - 0.011ms returns 0
T325C 002:589.553 JLINK_WriteReg(R11, 0x00000000)
T325C 002:589.561 - 0.011ms returns 0
T325C 002:589.569 JLINK_WriteReg(R12, 0x00000000)
T325C 002:589.582 - 0.017ms returns 0
T325C 002:589.591 JLINK_WriteReg(R13 (SP), 0x20001000)
T325C 002:589.601 - 0.016ms returns 0
T325C 002:589.614 JLINK_WriteReg(R14, 0x20000001)
T325C 002:589.625 - 0.016ms returns 0
T325C 002:589.637 JLINK_WriteReg(R15 (PC), 0x20000020)
T325C 002:589.648 - 0.015ms returns 0
T325C 002:589.657 JLINK_WriteReg(XPSR, 0x01000000)
T325C 002:589.665 - 0.011ms returns 0
T325C 002:589.673 JLINK_WriteReg(MSP, 0x20001000)
T325C 002:589.681 - 0.011ms returns 0
T325C 002:589.689 JLINK_WriteReg(PSP, 0x20001000)
T325C 002:589.696 - 0.011ms returns 0
T325C 002:589.705 JLINK_WriteReg(CFBP, 0x00000000)
T325C 002:589.712 - 0.011ms returns 0
T325C 002:589.721 JLINK_SetBPEx(Addr = 0x20000000, Type = 0xFFFFFFF2)
T325C 002:589.730 - 0.013ms returns 0x00000006
T325C 002:589.739 JLINK_Go()
T325C 002:614.611 - 24.895ms
T325C 002:614.651 JLINK_IsHalted()
T325C 002:626.494 - 11.870ms returns TRUE
T325C 002:626.540 JLINK_ReadReg(R15 (PC))
T325C 002:626.558 - 0.023ms returns 0x20000000
T325C 002:626.571 JLINK_ClrBPEx(BPHandle = 0x00000006)
T325C 002:626.581 - 0.014ms returns 0x00
T325C 002:626.590 JLINK_ReadReg(R0)
T325C 002:626.598 - 0.012ms returns 0x00000001
T325C 002:626.608 JLINK_HasError()
T325C 002:626.617 JLINK_WriteReg(R0, 0x00000800)
T325C 002:626.627 - 0.013ms returns 0
T325C 002:626.758 JLINK_WriteReg(R1, 0x00000400)
T325C 002:626.780 - 0.027ms returns 0
T325C 002:626.791 JLINK_WriteReg(R2, 0x000000FF)
T325C 002:626.799 - 0.011ms returns 0
T325C 002:626.807 JLINK_WriteReg(R3, 0x00000000)
T325C 002:626.815 - 0.011ms returns 0
T325C 002:626.823 JLINK_WriteReg(R4, 0x00000000)
T325C 002:626.831 - 0.011ms returns 0
T325C 002:626.839 JLINK_WriteReg(R5, 0x00000000)
T325C 002:626.847 - 0.011ms returns 0
T325C 002:626.855 JLINK_WriteReg(R6, 0x00000000)
T325C 002:626.863 - 0.011ms returns 0
T325C 002:626.871 JLINK_WriteReg(R7, 0x00000000)
T325C 002:626.878 - 0.011ms returns 0
T325C 002:626.886 JLINK_WriteReg(R8, 0x00000000)
T325C 002:626.894 - 0.011ms returns 0
T325C 002:626.902 JLINK_WriteReg(R9, 0x20000124)
T325C 002:626.916 - 0.021ms returns 0
T325C 002:626.928 JLINK_WriteReg(R10, 0x00000000)
T325C 002:626.936 - 0.011ms returns 0
T325C 002:626.944 JLINK_WriteReg(R11, 0x00000000)
T325C 002:626.952 - 0.011ms returns 0
T325C 002:626.960 JLINK_WriteReg(R12, 0x00000000)
T325C 002:626.967 - 0.011ms returns 0
T325C 002:626.975 JLINK_WriteReg(R13 (SP), 0x20001000)
T325C 002:626.984 - 0.012ms returns 0
T325C 002:626.992 JLINK_WriteReg(R14, 0x20000001)
T325C 002:626.999 - 0.011ms returns 0
T325C 002:627.007 JLINK_WriteReg(R15 (PC), 0x20000070)
T325C 002:627.015 - 0.011ms returns 0
T325C 002:627.023 JLINK_WriteReg(XPSR, 0x01000000)
T325C 002:627.031 - 0.011ms returns 0
T325C 002:627.039 JLINK_WriteReg(MSP, 0x20001000)
T325C 002:627.046 - 0.011ms returns 0
T325C 002:627.054 JLINK_WriteReg(PSP, 0x20001000)
T325C 002:627.062 - 0.011ms returns 0
T325C 002:627.070 JLINK_WriteReg(CFBP, 0x00000000)
T325C 002:627.078 - 0.011ms returns 0
T325C 002:627.086 JLINK_SetBPEx(Addr = 0x20000000, Type = 0xFFFFFFF2)
T325C 002:627.096 - 0.014ms returns 0x00000007
T325C 002:627.105 JLINK_Go()
T325C 002:650.451 - 23.370ms
T325C 002:650.487 JLINK_IsHalted()
T325C 002:653.021 - 2.542ms returns FALSE
T325C 002:653.040 JLINK_HasError()
T325C 002:657.870 JLINK_IsHalted()
T325C 002:670.595 - 12.744ms returns TRUE
T325C 002:670.622 JLINK_ReadReg(R15 (PC))
T325C 002:670.634 - 0.014ms returns 0x20000000
T325C 002:670.640 JLINK_ClrBPEx(BPHandle = 0x00000007)
T325C 002:670.645 - 0.007ms returns 0x00
T325C 002:670.667 JLINK_ReadReg(R0)
T325C 002:670.671 - 0.006ms returns 0x00000000
T325C 002:671.131 JLINK_HasError()
T325C 002:671.140 JLINK_WriteReg(R0, 0x00000C00)
T325C 002:671.146 - 0.008ms returns 0
T325C 002:671.151 JLINK_WriteReg(R1, 0x00000400)
T325C 002:671.156 - 0.006ms returns 0
T325C 002:671.160 JLINK_WriteReg(R2, 0x000000FF)
T325C 002:671.165 - 0.006ms returns 0
T325C 002:671.169 JLINK_WriteReg(R3, 0x00000000)
T325C 002:671.173 - 0.006ms returns 0
T325C 002:671.178 JLINK_WriteReg(R4, 0x00000000)
T325C 002:671.182 - 0.006ms returns 0
T325C 002:671.186 JLINK_WriteReg(R5, 0x00000000)
T325C 002:671.191 - 0.006ms returns 0
T325C 002:671.195 JLINK_WriteReg(R6, 0x00000000)
T325C 002:671.199 - 0.006ms returns 0
T325C 002:671.204 JLINK_WriteReg(R7, 0x00000000)
T325C 002:671.208 - 0.006ms returns 0
T325C 002:671.212 JLINK_WriteReg(R8, 0x00000000)
T325C 002:671.216 - 0.006ms returns 0
T325C 002:671.221 JLINK_WriteReg(R9, 0x20000124)
T325C 002:671.225 - 0.006ms returns 0
T325C 002:671.230 JLINK_WriteReg(R10, 0x00000000)
T325C 002:671.234 - 0.006ms returns 0
T325C 002:671.238 JLINK_WriteReg(R11, 0x00000000)
T325C 002:671.243 - 0.006ms returns 0
T325C 002:671.247 JLINK_WriteReg(R12, 0x00000000)
T325C 002:671.251 - 0.006ms returns 0
T325C 002:671.256 JLINK_WriteReg(R13 (SP), 0x20001000)
T325C 002:671.260 - 0.006ms returns 0
T325C 002:671.265 JLINK_WriteReg(R14, 0x20000001)
T325C 002:671.269 - 0.006ms returns 0
T325C 002:671.273 JLINK_WriteReg(R15 (PC), 0x20000020)
T325C 002:671.278 - 0.006ms returns 0
T325C 002:671.282 JLINK_WriteReg(XPSR, 0x01000000)
T325C 002:671.286 - 0.006ms returns 0
T325C 002:671.291 JLINK_WriteReg(MSP, 0x20001000)
T325C 002:671.295 - 0.006ms returns 0
T325C 002:671.299 JLINK_WriteReg(PSP, 0x20001000)
T325C 002:671.304 - 0.006ms returns 0
T325C 002:671.308 JLINK_WriteReg(CFBP, 0x00000000)
T325C 002:671.312 - 0.006ms returns 0
T325C 002:671.317 JLINK_SetBPEx(Addr = 0x20000000, Type = 0xFFFFFFF2)
T325C 002:671.322 - 0.007ms returns 0x00000008
T325C 002:671.327 JLINK_Go()
T325C 002:693.055 - 21.738ms
T325C 002:693.075 JLINK_IsHalted()
T325C 002:704.744 - 11.688ms returns TRUE
T325C 002:704.776 JLINK_ReadReg(R15 (PC))
T325C 002:704.788 - 0.014ms returns 0x20000000
T325C 002:704.794 JLINK_ClrBPEx(BPHandle = 0x00000008)
T325C 002:704.799 - 0.007ms returns 0x00
T325C 002:704.805 JLINK_ReadReg(R0)
T325C 002:704.810 - 0.007ms returns 0x00000001
T325C 002:704.816 JLINK_HasError()
T325C 002:704.821 JLINK_WriteReg(R0, 0x00000C00)
T325C 002:704.827 - 0.012ms returns 0
T325C 002:704.840 JLINK_WriteReg(R1, 0x00000400)
T325C 002:704.844 - 0.007ms returns 0
T325C 002:704.849 JLINK_WriteReg(R2, 0x000000FF)
T325C 002:704.854 - 0.006ms returns 0
T325C 002:704.860 JLINK_WriteReg(R3, 0x00000000)
T325C 002:704.864 - 0.006ms returns 0
T325C 002:704.871 JLINK_WriteReg(R4, 0x00000000)
T325C 002:704.876 - 0.006ms returns 0
T325C 002:704.881 JLINK_WriteReg(R5, 0x00000000)
T325C 002:704.885 - 0.006ms returns 0
T325C 002:704.891 JLINK_WriteReg(R6, 0x00000000)
T325C 002:704.896 - 0.006ms returns 0
T325C 002:704.901 JLINK_WriteReg(R7, 0x00000000)
T325C 002:704.906 - 0.006ms returns 0
T325C 002:704.912 JLINK_WriteReg(R8, 0x00000000)
T325C 002:704.917 - 0.007ms returns 0
T325C 002:704.922 JLINK_WriteReg(R9, 0x20000124)
T325C 002:704.926 - 0.006ms returns 0
T325C 002:704.931 JLINK_WriteReg(R10, 0x00000000)
T325C 002:704.936 - 0.006ms returns 0
T325C 002:704.941 JLINK_WriteReg(R11, 0x00000000)
T325C 002:704.945 - 0.006ms returns 0
T325C 002:704.950 JLINK_WriteReg(R12, 0x00000000)
T325C 002:704.955 - 0.006ms returns 0
T325C 002:704.959 JLINK_WriteReg(R13 (SP), 0x20001000)
T325C 002:704.964 - 0.007ms returns 0
T325C 002:704.969 JLINK_WriteReg(R14, 0x20000001)
T325C 002:704.974 - 0.006ms returns 0
T325C 002:704.980 JLINK_WriteReg(R15 (PC), 0x20000070)
T325C 002:704.985 - 0.007ms returns 0
T325C 002:704.990 JLINK_WriteReg(XPSR, 0x01000000)
T325C 002:704.994 - 0.006ms returns 0
T325C 002:704.999 JLINK_WriteReg(MSP, 0x20001000)
T325C 002:705.004 - 0.006ms returns 0
T325C 002:705.009 JLINK_WriteReg(PSP, 0x20001000)
T325C 002:705.013 - 0.006ms returns 0
T325C 002:705.018 JLINK_WriteReg(CFBP, 0x00000000)
T325C 002:705.023 - 0.006ms returns 0
T325C 002:705.028 JLINK_SetBPEx(Addr = 0x20000000, Type = 0xFFFFFFF2)
T325C 002:705.034 - 0.007ms returns 0x00000009
T325C 002:705.039 JLINK_Go()
T325C 002:725.308 - 20.276ms
T325C 002:725.323 JLINK_IsHalted()
T325C 002:727.724 - 2.407ms returns FALSE
T325C 002:727.739 JLINK_HasError()
T325C 002:731.645 JLINK_IsHalted()
T325C 002:743.728 - 12.105ms returns TRUE
T325C 002:743.759 JLINK_ReadReg(R15 (PC))
T325C 002:743.773 - 0.017ms returns 0x20000000
T325C 002:743.780 JLINK_ClrBPEx(BPHandle = 0x00000009)
T325C 002:743.787 - 0.009ms returns 0x00
T325C 002:743.793 JLINK_ReadReg(R0)
T325C 002:743.799 - 0.008ms returns 0x00000000
T325C 002:744.293 JLINK_HasError()
T325C 002:744.305 JLINK_WriteReg(R0, 0x00001000)
T325C 002:744.313 - 0.010ms returns 0
T325C 002:744.319 JLINK_WriteReg(R1, 0x00000400)
T325C 002:744.325 - 0.008ms returns 0
T325C 002:744.331 JLINK_WriteReg(R2, 0x000000FF)
T325C 002:744.337 - 0.008ms returns 0
T325C 002:744.343 JLINK_WriteReg(R3, 0x00000000)
T325C 002:744.348 - 0.008ms returns 0
T325C 002:744.354 JLINK_WriteReg(R4, 0x00000000)
T325C 002:744.360 - 0.008ms returns 0
T325C 002:744.365 JLINK_WriteReg(R5, 0x00000000)
T325C 002:744.371 - 0.008ms returns 0
T325C 002:744.377 JLINK_WriteReg(R6, 0x00000000)
T325C 002:744.382 - 0.008ms returns 0
T325C 002:744.388 JLINK_WriteReg(R7, 0x00000000)
T325C 002:744.393 - 0.008ms returns 0
T325C 002:744.399 JLINK_WriteReg(R8, 0x00000000)
T325C 002:744.405 - 0.008ms returns 0
T325C 002:744.411 JLINK_WriteReg(R9, 0x20000124)
T325C 002:744.420 - 0.012ms returns 0
T325C 002:744.426 JLINK_WriteReg(R10, 0x00000000)
T325C 002:744.432 - 0.008ms returns 0
T325C 002:744.438 JLINK_WriteReg(R11, 0x00000000)
T325C 002:744.443 - 0.008ms returns 0
T325C 002:744.449 JLINK_WriteReg(R12, 0x00000000)
T325C 002:744.454 - 0.008ms returns 0
T325C 002:744.460 JLINK_WriteReg(R13 (SP), 0x20001000)
T325C 002:744.467 - 0.009ms returns 0
T325C 002:744.473 JLINK_WriteReg(R14, 0x20000001)
T325C 002:744.478 - 0.008ms returns 0
T325C 002:744.484 JLINK_WriteReg(R15 (PC), 0x20000020)
T325C 002:744.490 - 0.008ms returns 0
T325C 002:744.495 JLINK_WriteReg(XPSR, 0x01000000)
T325C 002:744.501 - 0.008ms returns 0
T325C 002:744.507 JLINK_WriteReg(MSP, 0x20001000)
T325C 002:744.512 - 0.008ms returns 0
T325C 002:744.518 JLINK_WriteReg(PSP, 0x20001000)
T325C 002:744.524 - 0.012ms returns 0
T325C 002:744.538 JLINK_WriteReg(CFBP, 0x00000000)
T325C 002:744.544 - 0.008ms returns 0
T325C 002:744.550 JLINK_SetBPEx(Addr = 0x20000000, Type = 0xFFFFFFF2)
T325C 002:744.556 - 0.009ms returns 0x0000000A
T325C 002:744.563 JLINK_Go()
T325C 002:766.213 - 21.657ms
T325C 002:766.228 JLINK_IsHalted()
T325C 002:777.954 - 11.746ms returns TRUE
T325C 002:777.987 JLINK_ReadReg(R15 (PC))
T325C 002:778.001 - 0.016ms returns 0x20000000
T325C 002:778.007 JLINK_ClrBPEx(BPHandle = 0x0000000A)
T325C 002:778.013 - 0.008ms returns 0x00
T325C 002:778.019 JLINK_ReadReg(R0)
T325C 002:778.024 - 0.007ms returns 0x00000001
T325C 002:778.030 JLINK_HasError()
T325C 002:778.037 JLINK_WriteReg(R0, 0x00001000)
T325C 002:778.043 - 0.008ms returns 0
T325C 002:778.050 JLINK_WriteReg(R1, 0x00000400)
T325C 002:778.055 - 0.007ms returns 0
T325C 002:778.063 JLINK_WriteReg(R2, 0x000000FF)
T325C 002:778.068 - 0.007ms returns 0
T325C 002:778.074 JLINK_WriteReg(R3, 0x00000000)
T325C 002:778.079 - 0.007ms returns 0
T325C 002:778.086 JLINK_WriteReg(R4, 0x00000000)
T325C 002:778.091 - 0.007ms returns 0
T325C 002:778.097 JLINK_WriteReg(R5, 0x00000000)
T325C 002:778.102 - 0.007ms returns 0
T325C 002:778.108 JLINK_WriteReg(R6, 0x00000000)
T325C 002:778.113 - 0.007ms returns 0
T325C 002:778.119 JLINK_WriteReg(R7, 0x00000000)
T325C 002:778.124 - 0.007ms returns 0
T325C 002:778.129 JLINK_WriteReg(R8, 0x00000000)
T325C 002:778.134 - 0.007ms returns 0
T325C 002:778.139 JLINK_WriteReg(R9, 0x20000124)
T325C 002:778.144 - 0.007ms returns 0
T325C 002:778.149 JLINK_WriteReg(R10, 0x00000000)
T325C 002:778.155 - 0.007ms returns 0
T325C 002:778.160 JLINK_WriteReg(R11, 0x00000000)
T325C 002:778.165 - 0.007ms returns 0
T325C 002:778.170 JLINK_WriteReg(R12, 0x00000000)
T325C 002:778.175 - 0.007ms returns 0
T325C 002:778.182 JLINK_WriteReg(R13 (SP), 0x20001000)
T325C 002:778.187 - 0.008ms returns 0
T325C 002:778.193 JLINK_WriteReg(R14, 0x20000001)
T325C 002:778.198 - 0.007ms returns 0
T325C 002:778.203 JLINK_WriteReg(R15 (PC), 0x20000070)
T325C 002:778.208 - 0.007ms returns 0
T325C 002:778.213 JLINK_WriteReg(XPSR, 0x01000000)
T325C 002:778.218 - 0.007ms returns 0
T325C 002:778.224 JLINK_WriteReg(MSP, 0x20001000)
T325C 002:778.229 - 0.007ms returns 0
T325C 002:778.234 JLINK_WriteReg(PSP, 0x20001000)
T325C 002:778.239 - 0.007ms returns 0
T325C 002:778.244 JLINK_WriteReg(CFBP, 0x00000000)
T325C 002:778.249 - 0.007ms returns 0
T325C 002:778.256 JLINK_SetBPEx(Addr = 0x20000000, Type = 0xFFFFFFF2)
T325C 002:778.262 - 0.008ms returns 0x0000000B
T325C 002:778.268 JLINK_Go()
T325C 002:801.580 - 23.319ms
T325C 002:801.596 JLINK_IsHalted()
T325C 002:804.029 - 2.440ms returns FALSE
T325C 002:804.047 JLINK_HasError()
T325C 002:806.941 JLINK_IsHalted()
T325C 002:809.497 - 2.565ms returns FALSE
T325C 002:809.513 JLINK_HasError()
T325C 002:810.905 JLINK_IsHalted()
T325C 002:822.531 - 11.639ms returns TRUE
T325C 002:822.554 JLINK_ReadReg(R15 (PC))
T325C 002:822.569 - 0.018ms returns 0x20000000
T325C 002:822.579 JLINK_ClrBPEx(BPHandle = 0x0000000B)
T325C 002:822.589 - 0.014ms returns 0x00
T325C 002:822.599 JLINK_ReadReg(R0)
T325C 002:822.608 - 0.018ms returns 0x00000000
T325C 002:823.280 JLINK_HasError()
T325C 002:823.299 JLINK_WriteReg(R0, 0x00001400)
T325C 002:823.312 - 0.017ms returns 0
T325C 002:823.322 JLINK_WriteReg(R1, 0x00000400)
T325C 002:823.332 - 0.013ms returns 0
T325C 002:823.342 JLINK_WriteReg(R2, 0x000000FF)
T325C 002:823.351 - 0.013ms returns 0
T325C 002:823.360 JLINK_WriteReg(R3, 0x00000000)
T325C 002:823.369 - 0.013ms returns 0
T325C 002:823.379 JLINK_WriteReg(R4, 0x00000000)
T325C 002:823.387 - 0.013ms returns 0
T325C 002:823.397 JLINK_WriteReg(R5, 0x00000000)
T325C 002:823.406 - 0.013ms returns 0
T325C 002:823.415 JLINK_WriteReg(R6, 0x00000000)
T325C 002:823.424 - 0.013ms returns 0
T325C 002:823.434 JLINK_WriteReg(R7, 0x00000000)
T325C 002:823.443 - 0.013ms returns 0
T325C 002:823.452 JLINK_WriteReg(R8, 0x00000000)
T325C 002:823.461 - 0.013ms returns 0
T325C 002:823.471 JLINK_WriteReg(R9, 0x20000124)
T325C 002:823.490 - 0.023ms returns 0
T325C 002:823.500 JLINK_WriteReg(R10, 0x00000000)
T325C 002:823.509 - 0.013ms returns 0
T325C 002:823.519 JLINK_WriteReg(R11, 0x00000000)
T325C 002:823.528 - 0.013ms returns 0
T325C 002:823.537 JLINK_WriteReg(R12, 0x00000000)
T325C 002:823.546 - 0.013ms returns 0
T325C 002:823.555 JLINK_WriteReg(R13 (SP), 0x20001000)
T325C 002:823.565 - 0.014ms returns 0
T325C 002:823.575 JLINK_WriteReg(R14, 0x20000001)
T325C 002:823.584 - 0.013ms returns 0
T325C 002:823.594 JLINK_WriteReg(R15 (PC), 0x20000020)
T325C 002:823.603 - 0.013ms returns 0
T325C 002:823.612 JLINK_WriteReg(XPSR, 0x01000000)
T325C 002:823.621 - 0.013ms returns 0
T325C 002:823.631 JLINK_WriteReg(MSP, 0x20001000)
T325C 002:823.640 - 0.018ms returns 0
T325C 002:823.655 JLINK_WriteReg(PSP, 0x20001000)
T325C 002:823.664 - 0.013ms returns 0
T325C 002:823.675 JLINK_WriteReg(CFBP, 0x00000000)
T325C 002:823.684 - 0.013ms returns 0
T325C 002:823.694 JLINK_SetBPEx(Addr = 0x20000000, Type = 0xFFFFFFF2)
T325C 002:823.704 - 0.015ms returns 0x0000000C
T325C 002:823.714 JLINK_Go()
T325C 002:846.373 - 22.680ms
T325C 002:846.415 JLINK_IsHalted()
T325C 002:858.120 - 11.739ms returns TRUE
T325C 002:858.182 JLINK_ReadReg(R15 (PC))
T325C 002:858.210 - 0.034ms returns 0x20000000
T325C 002:858.226 JLINK_ClrBPEx(BPHandle = 0x0000000C)
T325C 002:858.241 - 0.021ms returns 0x00
T325C 002:858.256 JLINK_ReadReg(R0)
T325C 002:858.270 - 0.019ms returns 0x00000001
T325C 002:858.291 JLINK_HasError()
T325C 002:858.939 JLINK_WriteReg(R0, 0x00001400)
T325C 002:858.977 - 0.046ms returns 0
T325C 002:858.995 JLINK_WriteReg(R1, 0x00000400)
T325C 002:859.010 - 0.020ms returns 0
T325C 002:859.024 JLINK_WriteReg(R2, 0x000000FF)
T325C 002:859.037 - 0.019ms returns 0
T325C 002:859.051 JLINK_WriteReg(R3, 0x00000000)
T325C 002:859.064 - 0.019ms returns 0
T325C 002:859.078 JLINK_WriteReg(R4, 0x00000000)
T325C 002:859.091 - 0.019ms returns 0
T325C 002:859.105 JLINK_WriteReg(R5, 0x00000000)
T325C 002:859.118 - 0.019ms returns 0
T325C 002:859.132 JLINK_WriteReg(R6, 0x00000000)
T325C 002:859.145 - 0.019ms returns 0
T325C 002:859.159 JLINK_WriteReg(R7, 0x00000000)
T325C 002:859.172 - 0.019ms returns 0
T325C 002:859.185 JLINK_WriteReg(R8, 0x00000000)
T325C 002:859.199 - 0.019ms returns 0
T325C 002:859.212 JLINK_WriteReg(R9, 0x20000124)
T325C 002:859.225 - 0.018ms returns 0
T325C 002:859.239 JLINK_WriteReg(R10, 0x00000000)
T325C 002:859.252 - 0.019ms returns 0
T325C 002:859.266 JLINK_WriteReg(R11, 0x00000000)
T325C 002:859.279 - 0.019ms returns 0
T325C 002:859.293 JLINK_WriteReg(R12, 0x00000000)
T325C 002:859.306 - 0.018ms returns 0
T325C 002:859.319 JLINK_WriteReg(R13 (SP), 0x20001000)
T325C 002:859.334 - 0.020ms returns 0
T325C 002:859.347 JLINK_WriteReg(R14, 0x20000001)
T325C 002:859.361 - 0.019ms returns 0
T325C 002:859.375 JLINK_WriteReg(R15 (PC), 0x20000070)
T325C 002:859.388 - 0.019ms returns 0
T325C 002:859.401 JLINK_WriteReg(XPSR, 0x01000000)
T325C 002:859.414 - 0.019ms returns 0
T325C 002:859.428 JLINK_WriteReg(MSP, 0x20001000)
T325C 002:859.441 - 0.019ms returns 0
T325C 002:859.455 JLINK_WriteReg(PSP, 0x20001000)
T325C 002:859.468 - 0.019ms returns 0
T325C 002:859.482 JLINK_WriteReg(CFBP, 0x00000000)
T325C 002:859.495 - 0.018ms returns 0
T325C 002:859.509 JLINK_SetBPEx(Addr = 0x20000000, Type = 0xFFFFFFF2)
T325C 002:859.527 - 0.023ms returns 0x0000000D
T325C 002:859.541 JLINK_Go()
T325C 002:883.302 - 23.795ms
T325C 002:883.354 JLINK_IsHalted()
T325C 002:886.167 - 2.846ms returns FALSE
T325C 002:886.229 JLINK_HasError()
T325C 002:891.127 JLINK_IsHalted()
T325C 002:903.807 - 12.717ms returns TRUE
T325C 002:903.864 JLINK_ReadReg(R15 (PC))
T325C 002:903.892 - 0.035ms returns 0x20000000
T325C 002:903.909 JLINK_ClrBPEx(BPHandle = 0x0000000D)
T325C 002:903.923 - 0.021ms returns 0x00
T325C 002:903.938 JLINK_ReadReg(R0)
T325C 002:903.951 - 0.019ms returns 0x00000000
T325C 002:905.004 JLINK_HasError()
T325C 002:905.034 JLINK_WriteReg(R0, 0x00001800)
T325C 002:905.061 - 0.040ms returns 0
T325C 002:905.083 JLINK_WriteReg(R1, 0x00000400)
T325C 002:905.097 - 0.020ms returns 0
T325C 002:905.111 JLINK_WriteReg(R2, 0x000000FF)
T325C 002:905.125 - 0.019ms returns 0
T325C 002:905.139 JLINK_WriteReg(R3, 0x00000000)
T325C 002:905.152 - 0.019ms returns 0
T325C 002:905.166 JLINK_WriteReg(R4, 0x00000000)
T325C 002:905.178 - 0.019ms returns 0
T325C 002:905.192 JLINK_WriteReg(R5, 0x00000000)
T325C 002:905.205 - 0.019ms returns 0
T325C 002:905.219 JLINK_WriteReg(R6, 0x00000000)
T325C 002:905.232 - 0.019ms returns 0
T325C 002:905.246 JLINK_WriteReg(R7, 0x00000000)
T325C 002:905.259 - 0.019ms returns 0
T325C 002:905.273 JLINK_WriteReg(R8, 0x00000000)
T325C 002:905.286 - 0.019ms returns 0
T325C 002:905.300 JLINK_WriteReg(R9, 0x20000124)
T325C 002:905.313 - 0.019ms returns 0
T325C 002:905.327 JLINK_WriteReg(R10, 0x00000000)
T325C 002:905.340 - 0.019ms returns 0
T325C 002:905.354 JLINK_WriteReg(R11, 0x00000000)
T325C 002:905.367 - 0.019ms returns 0
T325C 002:905.381 JLINK_WriteReg(R12, 0x00000000)
T325C 002:905.394 - 0.019ms returns 0
T325C 002:905.408 JLINK_WriteReg(R13 (SP), 0x20001000)
T325C 002:905.422 - 0.020ms returns 0
T325C 002:905.436 JLINK_WriteReg(R14, 0x20000001)
T325C 002:905.450 - 0.019ms returns 0
T325C 002:905.464 JLINK_WriteReg(R15 (PC), 0x20000020)
T325C 002:905.477 - 0.019ms returns 0
T325C 002:905.491 JLINK_WriteReg(XPSR, 0x01000000)
T325C 002:905.504 - 0.019ms returns 0
T325C 002:905.518 JLINK_WriteReg(MSP, 0x20001000)
T325C 002:905.531 - 0.019ms returns 0
T325C 002:905.545 JLINK_WriteReg(PSP, 0x20001000)
T325C 002:905.558 - 0.019ms returns 0
T325C 002:905.572 JLINK_WriteReg(CFBP, 0x00000000)
T325C 002:905.585 - 0.019ms returns 0
T325C 002:905.600 JLINK_SetBPEx(Addr = 0x20000000, Type = 0xFFFFFFF2)
T325C 002:905.615 - 0.022ms returns 0x0000000E
T325C 002:905.630 JLINK_Go()
T325C 002:928.090 - 22.478ms
T325C 002:928.119 JLINK_IsHalted()
T325C 002:940.200 - 12.096ms returns TRUE
T325C 002:940.227 JLINK_ReadReg(R15 (PC))
T325C 002:940.238 - 0.013ms returns 0x20000000
T325C 002:940.243 JLINK_ClrBPEx(BPHandle = 0x0000000E)
T325C 002:940.248 - 0.007ms returns 0x00
T325C 002:940.253 JLINK_ReadReg(R0)
T325C 002:940.258 - 0.006ms returns 0x00000001
T325C 002:940.263 JLINK_HasError()
T325C 002:940.347 JLINK_WriteReg(R0, 0x00001800)
T325C 002:940.360 - 0.014ms returns 0
T325C 002:940.366 JLINK_WriteReg(R1, 0x00000400)
T325C 002:940.370 - 0.006ms returns 0
T325C 002:940.375 JLINK_WriteReg(R2, 0x000000FF)
T325C 002:940.379 - 0.006ms returns 0
T325C 002:940.384 JLINK_WriteReg(R3, 0x00000000)
T325C 002:940.388 - 0.006ms returns 0
T325C 002:940.393 JLINK_WriteReg(R4, 0x00000000)
T325C 002:940.397 - 0.006ms returns 0
T325C 002:940.401 JLINK_WriteReg(R5, 0x00000000)
T325C 002:940.406 - 0.006ms returns 0
T325C 002:940.410 JLINK_WriteReg(R6, 0x00000000)
T325C 002:940.414 - 0.006ms returns 0
T325C 002:940.419 JLINK_WriteReg(R7, 0x00000000)
T325C 002:940.423 - 0.006ms returns 0
T325C 002:940.427 JLINK_WriteReg(R8, 0x00000000)
T325C 002:940.432 - 0.006ms returns 0
T325C 002:940.436 JLINK_WriteReg(R9, 0x20000124)
T325C 002:940.440 - 0.006ms returns 0
T325C 002:940.445 JLINK_WriteReg(R10, 0x00000000)
T325C 002:940.449 - 0.006ms returns 0
T325C 002:940.454 JLINK_WriteReg(R11, 0x00000000)
T325C 002:940.458 - 0.006ms returns 0
T325C 002:940.462 JLINK_WriteReg(R12, 0x00000000)
T325C 002:940.466 - 0.006ms returns 0
T325C 002:940.471 JLINK_WriteReg(R13 (SP), 0x20001000)
T325C 002:940.476 - 0.006ms returns 0
T325C 002:940.480 JLINK_WriteReg(R14, 0x20000001)
T325C 002:940.484 - 0.006ms returns 0
T325C 002:940.489 JLINK_WriteReg(R15 (PC), 0x20000070)
T325C 002:940.493 - 0.006ms returns 0
T325C 002:940.497 JLINK_WriteReg(XPSR, 0x01000000)
T325C 002:940.502 - 0.006ms returns 0
T325C 002:940.506 JLINK_WriteReg(MSP, 0x20001000)
T325C 002:940.510 - 0.006ms returns 0
T325C 002:940.515 JLINK_WriteReg(PSP, 0x20001000)
T325C 002:940.519 - 0.006ms returns 0
T325C 002:940.524 JLINK_WriteReg(CFBP, 0x00000000)
T325C 002:940.528 - 0.010ms returns 0
T325C 002:940.540 JLINK_SetBPEx(Addr = 0x20000000, Type = 0xFFFFFFF2)
T325C 002:940.546 - 0.008ms returns 0x0000000F
T325C 002:940.551 JLINK_Go()
T325C 002:961.671 - 21.126ms
T325C 002:961.683 JLINK_IsHalted()
T325C 002:964.084 - 2.407ms returns FALSE
T325C 002:964.096 JLINK_HasError()
T325C 002:967.082 JLINK_IsHalted()
T325C 002:980.202 - 13.167ms returns TRUE
T325C 002:980.274 JLINK_ReadReg(R15 (PC))
T325C 002:980.311 - 0.047ms returns 0x20000000
T325C 002:980.335 JLINK_ClrBPEx(BPHandle = 0x0000000F)
T325C 002:980.356 - 0.031ms returns 0x00
T325C 002:980.378 JLINK_ReadReg(R0)
T325C 002:980.398 - 0.029ms returns 0x00000000
T325C 002:981.998 JLINK_HasError()
T325C 002:982.043 JLINK_WriteReg(R0, 0x00001C00)
T325C 002:982.072 - 0.038ms returns 0
T325C 002:982.094 JLINK_WriteReg(R1, 0x00000400)
T325C 002:982.114 - 0.028ms returns 0
T325C 002:982.135 JLINK_WriteReg(R2, 0x000000FF)
T325C 002:982.154 - 0.028ms returns 0
T325C 002:982.174 JLINK_WriteReg(R3, 0x00000000)
T325C 002:982.193 - 0.028ms returns 0
T325C 002:982.213 JLINK_WriteReg(R4, 0x00000000)
T325C 002:982.233 - 0.028ms returns 0
T325C 002:982.253 JLINK_WriteReg(R5, 0x00000000)
T325C 002:982.271 - 0.027ms returns 0
T325C 002:982.292 JLINK_WriteReg(R6, 0x00000000)
T325C 002:982.310 - 0.027ms returns 0
T325C 002:982.331 JLINK_WriteReg(R7, 0x00000000)
T325C 002:982.349 - 0.027ms returns 0
T325C 002:982.370 JLINK_WriteReg(R8, 0x00000000)
T325C 002:982.388 - 0.027ms returns 0
T325C 002:982.409 JLINK_WriteReg(R9, 0x20000124)
T325C 002:982.427 - 0.027ms returns 0
T325C 002:982.448 JLINK_WriteReg(R10, 0x00000000)
T325C 002:982.467 - 0.028ms returns 0
T325C 002:982.487 JLINK_WriteReg(R11, 0x00000000)
T325C 002:982.506 - 0.027ms returns 0
T325C 002:982.526 JLINK_WriteReg(R12, 0x00000000)
T325C 002:982.545 - 0.027ms returns 0
T325C 002:982.565 JLINK_WriteReg(R13 (SP), 0x20001000)
T325C 002:982.586 - 0.030ms returns 0
T325C 002:982.607 JLINK_WriteReg(R14, 0x20000001)
T325C 002:982.625 - 0.028ms returns 0
T325C 002:982.646 JLINK_WriteReg(R15 (PC), 0x20000020)
T325C 002:982.665 - 0.027ms returns 0
T325C 002:982.685 JLINK_WriteReg(XPSR, 0x01000000)
T325C 002:982.704 - 0.027ms returns 0
T325C 002:982.724 JLINK_WriteReg(MSP, 0x20001000)
T325C 002:982.743 - 0.027ms returns 0
T325C 002:982.763 JLINK_WriteReg(PSP, 0x20001000)
T325C 002:982.782 - 0.027ms returns 0
T325C 002:982.802 JLINK_WriteReg(CFBP, 0x00000000)
T325C 002:982.821 - 0.027ms returns 0
T325C 002:982.842 JLINK_SetBPEx(Addr = 0x20000000, Type = 0xFFFFFFF2)
T325C 002:982.865 - 0.032ms returns 0x00000010
T325C 002:982.886 JLINK_Go()
T325C 003:009.969 - 27.129ms
T325C 003:010.056 JLINK_IsHalted()
T325C 003:023.450 - 13.441ms returns TRUE
T325C 003:023.539 JLINK_ReadReg(R15 (PC))
T325C 003:023.578 - 0.050ms returns 0x20000000
T325C 003:023.602 JLINK_ClrBPEx(BPHandle = 0x00000010)
T325C 003:023.623 - 0.030ms returns 0x00
T325C 003:023.648 JLINK_ReadReg(R0)
T325C 003:023.667 - 0.028ms returns 0x00000001
T325C 003:023.698 JLINK_HasError()
T325C 003:023.721 JLINK_WriteReg(R0, 0x00001C00)
T325C 003:023.744 - 0.031ms returns 0
T325C 003:023.770 JLINK_WriteReg(R1, 0x00000400)
T325C 003:023.790 - 0.029ms returns 0
T325C 003:023.811 JLINK_WriteReg(R2, 0x000000FF)
T325C 003:023.830 - 0.028ms returns 0
T325C 003:023.851 JLINK_WriteReg(R3, 0x00000000)
T325C 003:023.870 - 0.027ms returns 0
T325C 003:023.897 JLINK_WriteReg(R4, 0x00000000)
T325C 003:023.917 - 0.028ms returns 0
T325C 003:023.938 JLINK_WriteReg(R5, 0x00000000)
T325C 003:023.957 - 0.028ms returns 0
T325C 003:023.982 JLINK_WriteReg(R6, 0x00000000)
T325C 003:024.002 - 0.029ms returns 0
T325C 003:024.022 JLINK_WriteReg(R7, 0x00000000)
T325C 003:024.041 - 0.027ms returns 0
T325C 003:024.072 JLINK_WriteReg(R8, 0x00000000)
T325C 003:024.092 - 0.029ms returns 0
T325C 003:024.121 JLINK_WriteReg(R9, 0x20000124)
T325C 003:024.141 - 0.029ms returns 0
T325C 003:024.161 JLINK_WriteReg(R10, 0x00000000)
T325C 003:024.181 - 0.028ms returns 0
T325C 003:024.206 JLINK_WriteReg(R11, 0x00000000)
T325C 003:024.242 - 0.054ms returns 0
T325C 003:024.272 JLINK_WriteReg(R12, 0x00000000)
T325C 003:024.292 - 0.028ms returns 0
T325C 003:024.320 JLINK_WriteReg(R13 (SP), 0x20001000)
T325C 003:024.342 - 0.031ms returns 0
T325C 003:024.363 JLINK_WriteReg(R14, 0x20000001)
T325C 003:024.382 - 0.028ms returns 0
T325C 003:024.407 JLINK_WriteReg(R15 (PC), 0x20000070)
T325C 003:024.427 - 0.029ms returns 0
T325C 003:024.448 JLINK_WriteReg(XPSR, 0x01000000)
T325C 003:024.467 - 0.028ms returns 0
T325C 003:024.488 JLINK_WriteReg(MSP, 0x20001000)
T325C 003:024.507 - 0.028ms returns 0
T325C 003:024.533 JLINK_WriteReg(PSP, 0x20001000)
T325C 003:024.553 - 0.029ms returns 0
T325C 003:024.574 JLINK_WriteReg(CFBP, 0x00000000)
T325C 003:024.593 - 0.028ms returns 0
T325C 003:024.618 JLINK_SetBPEx(Addr = 0x20000000, Type = 0xFFFFFFF2)
T325C 003:024.642 - 0.032ms returns 0x00000011
T325C 003:024.664 JLINK_Go()
T325C 003:052.152 - 27.534ms
T325C 003:052.238 JLINK_IsHalted()
T325C 003:055.231 - 3.039ms returns FALSE
T325C 003:055.317 JLINK_HasError()
T325C 003:061.272 JLINK_IsHalted()
T325C 003:074.362 - 13.138ms returns TRUE
T325C 003:074.436 JLINK_ReadReg(R15 (PC))
T325C 003:074.472 - 0.046ms returns 0x20000000
T325C 003:074.495 JLINK_ClrBPEx(BPHandle = 0x00000011)
T325C 003:074.515 - 0.029ms returns 0x00
T325C 003:074.537 JLINK_ReadReg(R0)
T325C 003:074.556 - 0.028ms returns 0x00000000
T325C 003:076.149 JLINK_HasError()
T325C 003:076.193 JLINK_WriteReg(R0, 0x00002000)
T325C 003:076.222 - 0.038ms returns 0
T325C 003:076.244 JLINK_WriteReg(R1, 0x00000400)
T325C 003:076.263 - 0.028ms returns 0
T325C 003:076.284 JLINK_WriteReg(R2, 0x000000FF)
T325C 003:076.303 - 0.027ms returns 0
T325C 003:076.323 JLINK_WriteReg(R3, 0x00000000)
T325C 003:076.341 - 0.027ms returns 0
T325C 003:076.361 JLINK_WriteReg(R4, 0x00000000)
T325C 003:076.380 - 0.027ms returns 0
